v1	Ix(U1:DRAIN)	Ix(U4:DRAIN)	Ix(U5:DRAIN)	Ix(U7:DRAIN)	Ix(U10:DRAIN)	Ix(U15:DRAIN)	Ix(U18:DRAIN)	Ix(U21:DRAIN)
0.000000000000000e+000	7.683106e-012	7.676476e-012	7.676476e-012	7.684552e-012	7.684970e-012	7.685548e-012	7.687906e-012	7.698528e-012
1.000000000000000e-001	7.818695e-012	7.779210e-012	7.779210e-012	7.836355e-012	7.852558e-012	7.885256e-012	7.968833e-012	8.183094e-012
2.000000000000000e-001	8.121111e-012	7.980428e-012	7.980428e-012	8.263367e-012	8.517381e-012	9.066520e-012	1.027889e-011	1.291568e-011
3.000000000000000e-001	9.481121e-012	8.667522e-012	8.667522e-012	1.095937e-011	1.402030e-011	2.050062e-011	3.421684e-011	6.316465e-011
4.000000000000000e-001	2.318968e-011	1.504570e-011	1.504570e-011	3.990668e-011	7.504453e-011	1.491549e-010	3.055303e-010	6.354839e-010
5.000000000000000e-001	1.824828e-010	8.850193e-011	8.850193e-011	3.787137e-010	7.927192e-010	1.668038e-009	3.518833e-009	7.428010e-009
6.000000000000000e-001	1.838662e-009	8.465522e-010	8.465522e-010	3.913506e-009	8.291699e-009	1.752322e-008	3.688926e-008	7.718027e-008
7.000000000000000e-001	1.134652e-008	5.193613e-009	5.193613e-009	2.414679e-008	5.086731e-008	1.062342e-007	2.198543e-007	4.510931e-007
7.999999999999999e-001	3.800167e-008	1.745901e-008	1.745901e-008	8.020977e-008	1.669366e-007	3.438822e-007	7.025135e-007	1.425364e-006
8.999999999999999e-001	8.716249e-008	4.036489e-008	4.036489e-008	1.822275e-007	3.755590e-007	7.669131e-007	1.555076e-006	3.133621e-006
9.999999999999999e-001	1.608883e-007	7.519408e-008	7.519408e-008	3.337010e-007	6.830942e-007	1.386988e-006	2.797826e-006	5.607272e-006
1.100000000000000e+000	2.597492e-007	1.223838e-007	1.223838e-007	5.355680e-007	1.091096e-006	2.206106e-006	4.431247e-006	8.837575e-006
1.200000000000000e+000	3.838945e-007	1.821451e-007	1.821451e-007	7.878867e-007	1.599189e-006	3.222159e-006	6.447415e-006	1.280023e-005
1.300000000000000e+000	5.331853e-007	2.544763e-007	2.544763e-007	1.090205e-006	2.205993e-006	4.431023e-006	8.834660e-006	1.746573e-005
1.400000000000000e+000	7.073639e-007	3.393016e-007	3.393016e-007	1.441821e-006	2.909602e-006	5.827550e-006	1.157983e-005	2.280332e-005
1.500000000000000e+000	9.065687e-007	4.368594e-007	4.368594e-007	1.842444e-006	3.708328e-006	7.406281e-006	1.466914e-005	2.878221e-005
1.600000000000000e+000	1.129508e-006	5.463144e-007	5.463144e-007	2.290016e-006	4.598728e-006	9.160913e-006	1.808987e-005	3.537189e-005
1.700000000000000e+000	1.376199e-006	6.678180e-007	6.678180e-007	2.784075e-006	5.578893e-006	1.108592e-005	2.182878e-005	4.254241e-005
1.800000000000001e+000	1.646272e-006	8.012557e-007	8.012557e-007	3.323631e-006	6.646328e-006	1.317559e-005	2.587326e-005	5.026461e-005
1.900000000000001e+000	1.939288e-006	9.464450e-007	9.464450e-007	3.907634e-006	7.798569e-006	1.542445e-005	3.021109e-005	5.851028e-005
2.000000000000000e+000	2.254819e-006	1.103213e-006	1.103213e-006	4.535052e-006	9.033213e-006	1.782724e-005	3.483043e-005	6.725229e-005
2.100000000000001e+000	2.592438e-006	1.271390e-006	1.271390e-006	5.204864e-006	1.034794e-005	2.037891e-005	3.971982e-005	7.646465e-005
2.200000000000001e+000	2.951726e-006	1.450807e-006	1.450807e-006	5.916070e-006	1.174051e-005	2.307458e-005	4.486819e-005	8.612255e-005
2.300000000000001e+000	3.332266e-006	1.641298e-006	1.641298e-006	6.667692e-006	1.320878e-005	2.590954e-005	5.026488e-005	9.620235e-005
2.400000000000001e+000	3.733651e-006	1.842697e-006	1.842697e-006	7.458781e-006	1.475068e-005	2.887925e-005	5.589964e-005	1.066815e-004
2.500000000000001e+000	4.155479e-006	2.054845e-006	2.054845e-006	8.288416e-006	1.636425e-005	3.197931e-005	6.176258e-005	1.175387e-004
2.600000000000001e+000	4.597357e-006	2.277582e-006	2.277582e-006	9.155709e-006	1.804755e-005	3.520545e-005	6.784420e-005	1.287534e-004
2.700000000000001e+000	5.058899e-006	2.510751e-006	2.510751e-006	1.005979e-005	1.979874e-005	3.855354e-005	7.413536e-005	1.403064e-004
2.800000000000001e+000	5.539726e-006	2.754197e-006	2.754197e-006	1.099984e-005	2.161601e-005	4.201957e-005	8.062725e-005	1.521792e-004
2.900000000000001e+000	6.039468e-006	3.007768e-006	3.007768e-006	1.197503e-005	2.349761e-005	4.559962e-005	8.731140e-005	1.643543e-004
3.000000000000001e+000	6.557761e-006	3.271311e-006	3.271311e-006	1.298459e-005	2.544182e-005	4.928991e-005	9.417967e-005	1.768150e-004
3.100000000000001e+000	7.094246e-006	3.544679e-006	3.544679e-006	1.402774e-005	2.744697e-005	5.308672e-005	1.012242e-004	1.895453e-004
3.200000000000002e+000	7.648575e-006	3.827721e-006	3.827721e-006	1.510372e-005	2.951142e-005	5.698647e-005	1.084373e-004	2.025301e-004
3.300000000000002e+000	8.220402e-006	4.120291e-006	4.120291e-006	1.621180e-005	3.163355e-005	6.098564e-005	1.158117e-004	2.157549e-004
3.400000000000002e+000	8.809391e-006	4.422242e-006	4.422242e-006	1.735127e-005	3.381176e-005	6.508080e-005	1.233403e-004	2.292059e-004
3.500000000000002e+000	9.415209e-006	4.733431e-006	4.733431e-006	1.852139e-005	3.604451e-005	6.926861e-005	1.310163e-004	2.428700e-004
3.600000000000002e+000	1.003753e-005	5.053713e-006	5.053713e-006	1.972148e-005	3.833026e-005	7.354579e-005	1.388330e-004	2.567344e-004
3.700000000000002e+000	1.067603e-005	5.382947e-006	5.382947e-006	2.095083e-005	4.066751e-005	7.790915e-005	1.467841e-004	2.707871e-004
3.800000000000002e+000	1.133040e-005	5.720993e-006	5.720993e-006	2.220878e-005	4.305476e-005	8.235557e-005	1.548632e-004	2.850167e-004
3.900000000000002e+000	1.200032e-005	6.067712e-006	6.067712e-006	2.349463e-005	4.549055e-005	8.688203e-005	1.630644e-004	2.994119e-004
4.000000000000002e+000	1.268549e-005	6.422969e-006	6.422969e-006	2.480774e-005	4.797347e-005	9.148553e-005	1.713819e-004	3.139625e-004
4.100000000000001e+000	1.338562e-005	6.786630e-006	6.786630e-006	2.614744e-005	5.050210e-005	9.616318e-005	1.798101e-004	3.286580e-004
4.200000000000001e+000	1.410040e-005	7.158566e-006	7.158566e-006	2.751311e-005	5.307507e-005	1.009122e-004	1.883435e-004	3.434891e-004
4.300000000000001e+000	1.482956e-005	7.538650e-006	7.538650e-006	2.890411e-005	5.569102e-005	1.057297e-004	1.969768e-004	3.584462e-004
4.400000000000000e+000	1.557282e-005	7.926758e-006	7.926758e-006	3.031982e-005	5.834865e-005	1.106132e-004	2.057049e-004	3.735207e-004
4.500000000000000e+000	1.632991e-005	8.322774e-006	8.322774e-006	3.175965e-005	6.104666e-005	1.155600e-004	2.145231e-004	3.887040e-004
4.600000000000000e+000	1.710055e-005	8.726582e-006	8.726582e-006	3.322301e-005	6.378380e-005	1.205675e-004	2.234264e-004	4.039881e-004
4.699999999999999e+000	1.788450e-005	9.138073e-006	9.138073e-006	3.470932e-005	6.655885e-005	1.256334e-004	2.324104e-004	4.193651e-004
4.799999999999999e+000	1.868150e-005	9.557144e-006	9.557144e-006	3.621802e-005	6.937062e-005	1.307552e-004	2.414706e-004	4.348278e-004
4.899999999999999e+000	1.949132e-005	9.983696e-006	9.983696e-006	3.774857e-005	7.221793e-005	1.359307e-004	2.506028e-004	4.503690e-004
5.000000000000000e+000	2.031373e-005	1.041764e-005	1.041764e-005	3.930044e-005	7.509967e-005	1.411575e-004	2.598029e-004	4.659819e-004
